
**** 03/18/21 01:14:24 ********* PSpice 9.2 (Mar 2000) ******** ID# 0 ********

 * C:\Users\Ishan's PC\Desktop\Sem 4\Lab\LIC\Integrator Practical\integratore_reale_transient.sch


 ****     CIRCUIT DESCRIPTION


******************************************************************************




* Schematics Version 9.2
* Thu Mar 18 01:14:20 2021



** Analysis setup **
.tran 0.1ms 100ms 50ms
.OP 


* From [PSPICE NETLIST] section of C:\Program Files\Orcad\PSpice\PSpice.ini:
.lib "nom.lib"

.INC "integratore_reale_transient.net"



**** INCLUDING integratore_reale_transient.net ****
* Schematics Netlist *



V_V1         0 -Vcc 15V
V_V2         +Vcc 0 15V
R_R1         $N_0002 $N_0001  10k  
C_Cf         $N_0001 **OUT**  0.0022u  
R_Rf         $N_0001 **OUT**  33k  
X_U2         0 $N_0001 +Vcc -Vcc **OUT** LF411
V_Vquadra50kHz         $N_0005 0  
+PULSE 1 -1 0 0.01u 0.01u 10u 20u
R_R3         $N_0005 $N_0006  1k  
V_Vquadra100Hz         $N_0006 0  
+PULSE 1 -1 0 1u 1u 5m 10m
V_Vquadra         $N_0002 0  
+PULSE 1 -1 0 1u 1u 5m 10m

**** RESUMING integratore_reale_transient.cir ****
.PROBE V(*) I(*) W(*) D(*) NOISE(*) 


.END

**** 03/18/21 01:14:24 ********* PSpice 9.2 (Mar 2000) ******** ID# 0 ********

 * C:\Users\Ishan's PC\Desktop\Sem 4\Lab\LIC\Integrator Practical\integratore_reale_transient.sch


 ****     Diode MODEL PARAMETERS


******************************************************************************




               X_U2.dx         X_U2.dy         
          IS  800.000000E-18  800.000000E-18 
          RS    1.000000E-03    1.000000E-03 
         CJO                   10.000000E-12 


**** 03/18/21 01:14:24 ********* PSpice 9.2 (Mar 2000) ******** ID# 0 ********

 * C:\Users\Ishan's PC\Desktop\Sem 4\Lab\LIC\Integrator Practical\integratore_reale_transient.sch


 ****     Junction FET MODEL PARAMETERS


******************************************************************************




               X_U2.jx         
               NJF             
         VTO   -1            
        BETA  743.300000E-06 
          IS   12.500000E-12 


**** 03/18/21 01:14:24 ********* PSpice 9.2 (Mar 2000) ******** ID# 0 ********

 * C:\Users\Ishan's PC\Desktop\Sem 4\Lab\LIC\Integrator Practical\integratore_reale_transient.sch


 ****     SMALL SIGNAL BIAS SOLUTION       TEMPERATURE =   27.000 DEG C


******************************************************************************



 NODE   VOLTAGE     NODE   VOLTAGE     NODE   VOLTAGE     NODE   VOLTAGE


( +Vcc)   15.0000  ( -Vcc)  -15.0000  (X_U2.6) 415.6E-06 (X_U2.7)   -3.3050     

(X_U2.8)   -3.3050 (X_U2.9)    0.0000 ($N_0001) 4.952E-06                       

($N_0002)    1.0000                   ($N_0005)    1.0000                       

($N_0006)    1.0000                   (**OUT**)   -3.3000                       

(X_U2.10)     .6613                   (X_U2.11)   14.6610                       

(X_U2.12)   14.6610                   (X_U2.53)   13.5000                       

(X_U2.54)  -13.5000                   (X_U2.90)    -.1000                       

(X_U2.91)   25.0000                   (X_U2.92)  -25.0000                       

(X_U2.99)    0.0000                   




    VOLTAGE SOURCE CURRENTS
    NAME         CURRENT

    V_V1        -2.170E-03
    V_V2        -2.171E-03
    V_Vquadra50kHz   0.000E+00
    V_Vquadra100Hz   0.000E+00
    V_Vquadra   -1.000E-04
    X_U2.vb      4.156E-09
    X_U2.vc      1.680E-11
    X_U2.ve      9.433E-12
    X_U2.vlim   -1.000E-04
    X_U2.vlp    -2.510E-11
    X_U2.vln    -2.537E-11

    TOTAL POWER DISSIPATION   6.52E-02  WATTS


**** 03/18/21 01:14:24 ********* PSpice 9.2 (Mar 2000) ******** ID# 0 ********

 * C:\Users\Ishan's PC\Desktop\Sem 4\Lab\LIC\Integrator Practical\integratore_reale_transient.sch


 ****     OPERATING POINT INFORMATION      TEMPERATURE =   27.000 DEG C


******************************************************************************






**** VOLTAGE-CONTROLLED CURRENT SOURCES


NAME         X_U2.ga     X_U2.gcm  
I-SOURCE    -2.494E-09   1.662E-09


**** VOLTAGE-CONTROLLED VOLTAGE SOURCES


NAME         X_U2.egnd 
V-SOURCE     0.000E+00
I-SOURCE     1.006E-04


**** CURRENT-CONTROLLED CURRENT SOURCES


NAME         X_U2.fb   
I-SOURCE     1.323E-01


**** CURRENT-CONTROLLED VOLTAGE SOURCES


NAME         X_U2.hlim 
V-SOURCE    -1.000E-01
I-SOURCE     1.990E-13


**** DIODES


NAME         X_U2.dc     X_U2.de     X_U2.dlp    X_U2.dln    X_U2.dp   
MODEL        X_U2.dy     X_U2.dy     X_U2.dx     X_U2.dx     X_U2.dx   
ID          -1.68E-11   -1.02E-11   -2.51E-11   -2.49E-11   -3.00E-11 
VD          -1.68E+01   -1.02E+01   -2.51E+01   -2.49E+01   -3.00E+01 
REQ          1.00E+12    1.00E+12    1.00E+12    1.00E+12    1.00E+12 
CAP          2.37E-12    2.99E-12    0.00E+00    0.00E+00    0.00E+00 


**** JFETS


NAME         X_U2.j1     X_U2.j2   
MODEL        X_U2.jx     X_U2.jx   
ID           8.53E-05    8.53E-05 
VGS         -6.61E-01   -6.61E-01 
VDS          1.40E+01    1.40E+01 
GM           5.04E-04    5.04E-04 
GDS          0.00E+00    0.00E+00 
CGS          0.00E+00    0.00E+00 
CGD          0.00E+00    0.00E+00 
**** 03/18/21 01:14:24 ********* PSpice 9.2 (Mar 2000) ******** ID# 0 ********

 * C:\Users\Ishan's PC\Desktop\Sem 4\Lab\LIC\Integrator Practical\integratore_reale_transient.sch


 ****     INITIAL TRANSIENT SOLUTION       TEMPERATURE =   27.000 DEG C


******************************************************************************



 NODE   VOLTAGE     NODE   VOLTAGE     NODE   VOLTAGE     NODE   VOLTAGE


( +Vcc)   15.0000  ( -Vcc)  -15.0000  (X_U2.6) 415.6E-06 (X_U2.7)   -3.3050     

(X_U2.8)   -3.3050 (X_U2.9)    0.0000 ($N_0001) 4.952E-06                       

($N_0002)    1.0000                   ($N_0005)    1.0000                       

($N_0006)    1.0000                   (**OUT**)   -3.3000                       

(X_U2.10)     .6613                   (X_U2.11)   14.6610                       

(X_U2.12)   14.6610                   (X_U2.53)   13.5000                       

(X_U2.54)  -13.5000                   (X_U2.90)    -.1000                       

(X_U2.91)   25.0000                   (X_U2.92)  -25.0000                       

(X_U2.99)    0.0000                   




    VOLTAGE SOURCE CURRENTS
    NAME         CURRENT

    V_V1        -2.170E-03
    V_V2        -2.171E-03
    V_Vquadra50kHz   0.000E+00
    V_Vquadra100Hz   0.000E+00
    V_Vquadra   -1.000E-04
    X_U2.vb      4.156E-09
    X_U2.vc      1.680E-11
    X_U2.ve      9.433E-12
    X_U2.vlim   -1.000E-04
    X_U2.vlp    -2.510E-11
    X_U2.vln    -2.537E-11

    TOTAL POWER DISSIPATION   6.52E-02  WATTS



          JOB CONCLUDED

          TOTAL JOB TIME           17.38
